Freq.	V(ch_full)
1.00000000000000e+002	(-3.74938150448871e+001dB,-9.09678825001168e+001°)
1.00347174850950e+002	(-3.74637160968171e+001dB,-9.09708963494629e+001°)
1.00695555005672e+002	(-3.74336171765420e+001dB,-9.09739218584375e+001°)
1.01045144648676e+002	(-3.74035182842577e+001dB,-9.09769590633586e+001°)
1.01395947979003e+002	(-3.73734194201615e+001dB,-9.09800080006848e+001°)
1.01747969210269e+002	(-3.73433205844520e+001dB,-9.09830687070150e+001°)
1.02101212570719e+002	(-3.73132217773293e+001dB,-9.09861412190894e+001°)
1.02455682303280e+002	(-3.72831229989947e+001dB,-9.09892255737899e+001°)
1.02811382665607e+002	(-3.72530242496509e+001dB,-9.09923218081401e+001°)
1.03168317930136e+002	(-3.72229255295023e+001dB,-9.09954299593063e+001°)
1.03526492384138e+002	(-3.71928268387542e+001dB,-9.09985500645975e+001°)
1.03885910329766e+002	(-3.71627281776137e+001dB,-9.10016821614662e+001°)
1.04246576084112e+002	(-3.71326295462891e+001dB,-9.10048262875085e+001°)
1.04608493979253e+002	(-3.71025309449903e+001dB,-9.10079824804649e+001°)
1.04971668362307e+002	(-3.70724323739286e+001dB,-9.10111507782206e+001°)
1.05336103595484e+002	(-3.70423338333167e+001dB,-9.10143312188058e+001°)
1.05701804056138e+002	(-3.70122353233686e+001dB,-9.10175238403962e+001°)
1.06068774136822e+002	(-3.69821368443002e+001dB,-9.10207286813139e+001°)
1.06437018245336e+002	(-3.69520383963285e+001dB,-9.10239457800271e+001°)
1.06806540804785e+002	(-3.69219399796721e+001dB,-9.10271751751512e+001°)
1.07177346253629e+002	(-3.68918415945512e+001dB,-9.10304169054490e+001°)
1.07549439045738e+002	(-3.68617432411875e+001dB,-9.10336710098312e+001°)
1.07922823650443e+002	(-3.68316449198040e+001dB,-9.10369375273566e+001°)
1.08297504552593e+002	(-3.68015466306255e+001dB,-9.10402164972332e+001°)
1.08673486252606e+002	(-3.67714483738783e+001dB,-9.10435079588180e+001°)
1.09050773266526e+002	(-3.67413501497902e+001dB,-9.10468119516179e+001°)
1.09429370126074e+002	(-3.67112519585905e+001dB,-9.10501285152899e+001°)
1.09809281378705e+002	(-3.66811538005102e+001dB,-9.10534576896418e+001°)
1.10190511587661e+002	(-3.66510556757818e+001dB,-9.10567995146325e+001°)
1.10573065332027e+002	(-3.66209575846395e+001dB,-9.10601540303727e+001°)
1.10956947206785e+002	(-3.65908595273191e+001dB,-9.10635212771249e+001°)
1.11342161822869e+002	(-3.65607615040580e+001dB,-9.10669012953046e+001°)
1.11728713807222e+002	(-3.65306635150951e+001dB,-9.10702941254802e+001°)
1.12116607802851e+002	(-3.65005655606711e+001dB,-9.10736998083736e+001°)
1.12505848468881e+002	(-3.64704676410284e+001dB,-9.10771183848610e+001°)
1.12896440480613e+002	(-3.64403697564109e+001dB,-9.10805498959728e+001°)
1.13288388529580e+002	(-3.64102719070644e+001dB,-9.10839943828947e+001°)
1.13681697323602e+002	(-3.63801740932362e+001dB,-9.10874518869679e+001°)
1.14076371586843e+002	(-3.63500763151754e+001dB,-9.10909224496895e+001°)
1.14472416059869e+002	(-3.63199785731327e+001dB,-9.10944061127133e+001°)
1.14869835499704e+002	(-3.62898808673608e+001dB,-9.10979029178499e+001°)
1.15268634679887e+002	(-3.62597831981138e+001dB,-9.11014129070676e+001°)
1.15668818390529e+002	(-3.62296855656478e+001dB,-9.11049361224926e+001°)
1.16070391438372e+002	(-3.61995879702206e+001dB,-9.11084726064097e+001°)
1.16473358646846e+002	(-3.61694904120917e+001dB,-9.11120224012626e+001°)
1.16877724856125e+002	(-3.61393928915225e+001dB,-9.11155855496546e+001°)
1.17283494923188e+002	(-3.61092954087762e+001dB,-9.11191620943490e+001°)
1.17690673721877e+002	(-3.60791979641177e+001dB,-9.11227520782698e+001°)
1.18099266142953e+002	(-3.60491005578138e+001dB,-9.11263555445018e+001°)
1.18509277094158e+002	(-3.60190031901333e+001dB,-9.11299725362915e+001°)
1.18920711500272e+002	(-3.59889058613464e+001dB,-9.11336030970476e+001°)
1.19333574303172e+002	(-3.59588085717258e+001dB,-9.11372472703411e+001°)
1.19747870461893e+002	(-3.59287113215455e+001dB,-9.11409050999064e+001°)
1.20163604952685e+002	(-3.58986141110818e+001dB,-9.11445766296415e+001°)
1.20580782769076e+002	(-3.58685169406126e+001dB,-9.11482619036084e+001°)
1.20999408921930e+002	(-3.58384198104180e+001dB,-9.11519609660339e+001°)
1.21419488439505e+002	(-3.58083227207799e+001dB,-9.11556738613100e+001°)
1.21841026367519e+002	(-3.57782256719820e+001dB,-9.11594006339946e+001°)
1.22264027769207e+002	(-3.57481286643103e+001dB,-9.11631413288116e+001°)
1.22688497725381e+002	(-3.57180316980524e+001dB,-9.11668959906519e+001°)
1.23114441334492e+002	(-3.56879347734983e+001dB,-9.11706646645737e+001°)
1.23541863712693e+002	(-3.56578378909396e+001dB,-9.11744473958031e+001°)
1.23970769993899e+002	(-3.56277410506701e+001dB,-9.11782442297345e+001°)
1.24401165329847e+002	(-3.55976442529857e+001dB,-9.11820552119315e+001°)
1.24833054890162e+002	(-3.55675474981842e+001dB,-9.11858803881270e+001°)
1.25266443862413e+002	(-3.55374507865655e+001dB,-9.11897198042241e+001°)
1.25701337452183e+002	(-3.55073541184317e+001dB,-9.11935735062962e+001°)
1.26137740883125e+002	(-3.54772574940869e+001dB,-9.11974415405882e+001°)
1.26575659397028e+002	(-3.54471609138372e+001dB,-9.12013239535166e+001°)
1.27015098253879e+002	(-3.54170643779909e+001dB,-9.12052207916700e+001°)
1.27456062731927e+002	(-3.53869678868585e+001dB,-9.12091321018100e+001°)
1.27898558127743e+002	(-3.53568714407525e+001dB,-9.12130579308714e+001°)
1.28342589756291e+002	(-3.53267750399878e+001dB,-9.12169983259630e+001°)
1.28788162950983e+002	(-3.52966786848812e+001dB,-9.12209533343681e+001°)
1.29235283063750e+002	(-3.52665823757518e+001dB,-9.12249230035449e+001°)
1.29683955465101e+002	(-3.52364861129210e+001dB,-9.12289073811274e+001°)
1.30134185544194e+002	(-3.52063898967122e+001dB,-9.12329065149258e+001°)
1.30585978708892e+002	(-3.51762937274514e+001dB,-9.12369204529267e+001°)
1.31039340385837e+002	(-3.51461976054665e+001dB,-9.12409492432944e+001°)
1.31494276020508e+002	(-3.51161015310879e+001dB,-9.12449929343710e+001°)
1.31950791077290e+002	(-3.50860055046480e+001dB,-9.12490515746768e+001°)
1.32408891039540e+002	(-3.50559095264819e+001dB,-9.12531252129115e+001°)
1.32868581409652e+002	(-3.50258135969268e+001dB,-9.12572138979543e+001°)
1.33329867709120e+002	(-3.49957177163221e+001dB,-9.12613176788644e+001°)
1.33792755478612e+002	(-3.49656218850097e+001dB,-9.12654366048822e+001°)
1.34257250278027e+002	(-3.49355261033340e+001dB,-9.12695707254289e+001°)
1.34723357686569e+002	(-3.49054303716416e+001dB,-9.12737200901083e+001°)
1.35191083302813e+002	(-3.48753346902815e+001dB,-9.12778847487063e+001°)
1.35660432744768e+002	(-3.48452390596052e+001dB,-9.12820647511921e+001°)
1.36131411649948e+002	(-3.48151434799666e+001dB,-9.12862601477185e+001°)
1.36604025675440e+002	(-3.47850479517219e+001dB,-9.12904709886230e+001°)
1.37078280497971e+002	(-3.47549524752301e+001dB,-9.12946973244276e+001°)
1.37554181813975e+002	(-3.47248570508524e+001dB,-9.12989392058400e+001°)
1.38031735339663e+002	(-3.46947616789527e+001dB,-9.13031966837542e+001°)
1.38510946811093e+002	(-3.46646663598971e+001dB,-9.13074698092506e+001°)
1.38991821984234e+002	(-3.46345710940546e+001dB,-9.13117586335974e+001°)
1.39474366635041e+002	(-3.46044758817967e+001dB,-9.13160632082502e+001°)
1.39958586559520e+002	(-3.45743807234971e+001dB,-9.13203835848537e+001°)
1.40444487573800e+002	(-3.45442856195327e+001dB,-9.13247198152415e+001°)
1.40932075514202e+002	(-3.45141905702824e+001dB,-9.13290719514370e+001°)
1.41421356237310e+002	(-3.44840955761281e+001dB,-9.13334400456541e+001°)
1.41912335620039e+002	(-3.44540006374543e+001dB,-9.13378241502977e+001°)
1.42405019559708e+002	(-3.44239057546481e+001dB,-9.13422243179643e+001°)
1.42899413974110e+002	(-3.43938109280992e+001dB,-9.13466406014429e+001°)
1.43395524801583e+002	(-3.43637161582002e+001dB,-9.13510730537152e+001°)
1.43893358001083e+002	(-3.43336214453463e+001dB,-9.13555217279566e+001°)
1.44392919552250e+002	(-3.43035267899353e+001dB,-9.13599866775364e+001°)
1.44894215455488e+002	(-3.42734321923681e+001dB,-9.13644679560190e+001°)
1.45397251732032e+002	(-3.42433376530481e+001dB,-9.13689656171642e+001°)
1.45902034424018e+002	(-3.42132431723816e+001dB,-9.13734797149278e+001°)
1.46408569594563e+002	(-3.41831487507777e+001dB,-9.13780103034622e+001°)
1.46916863327831e+002	(-3.41530543886483e+001dB,-9.13825574371176e+001°)
1.47426921729111e+002	(-3.41229600864082e+001dB,-9.13871211704417e+001°)
1.47938750924884e+002	(-3.40928658444750e+001dB,-9.13917015581812e+001°)
1.48452357062906e+002	(-3.40627716632694e+001dB,-9.13962986552820e+001°)
1.48967746312271e+002	(-3.40326775432147e+001dB,-9.14009125168899e+001°)
1.49484924863494e+002	(-3.40025834847374e+001dB,-9.14055431983514e+001°)
1.50003898928582e+002	(-3.39724894882669e+001dB,-9.14101907552144e+001°)
1.50524674741107e+002	(-3.39423955542354e+001dB,-9.14148552432284e+001°)
1.51047258556283e+002	(-3.39123016830784e+001dB,-9.14195367183458e+001°)
1.51571656651040e+002	(-3.38822078752341e+001dB,-9.14242352367221e+001°)
1.52097875324102e+002	(-3.38521141311439e+001dB,-9.14289508547168e+001°)
1.52625920896057e+002	(-3.38220204512523e+001dB,-9.14336836288940e+001°)
1.53155799709439e+002	(-3.37919268360069e+001dB,-9.14384336160231e+001°)
1.53687518128802e+002	(-3.37618332858582e+001dB,-9.14432008730792e+001°)
1.54221082540795e+002	(-3.37317398012600e+001dB,-9.14479854572443e+001°)
1.54756499354240e+002	(-3.37016463826692e+001dB,-9.14527874259075e+001°)
1.55293775000209e+002	(-3.36715530305459e+001dB,-9.14576068366661e+001°)
1.55832915932101e+002	(-3.36414597453534e+001dB,-9.14624437473259e+001°)
1.56373928625719e+002	(-3.36113665275580e+001dB,-9.14672982159019e+001°)
1.56916819579351e+002	(-3.35812733776296e+001dB,-9.14721703006195e+001°)
1.57461595313841e+002	(-3.35511802960411e+001dB,-9.14770600599145e+001°)
1.58008262372676e+002	(-3.35210872832687e+001dB,-9.14819675524342e+001°)
1.58556827322058e+002	(-3.34909943397919e+001dB,-9.14868928370382e+001°)
1.59107296750985e+002	(-3.34609014660937e+001dB,-9.14918359727985e+001°)
1.59659677271331e+002	(-3.34308086626603e+001dB,-9.14967970190010e+001°)
1.60213975517925e+002	(-3.34007159299812e+001dB,-9.15017760351457e+001°)
1.60770198148631e+002	(-3.33706232685494e+001dB,-9.15067730809474e+001°)
1.61328351844426e+002	(-3.33405306788614e+001dB,-9.15117882163367e+001°)
1.61888443309483e+002	(-3.33104381614170e+001dB,-9.15168215014602e+001°)
1.62450479271248e+002	(-3.32803457167195e+001dB,-9.15218729966820e+001°)
1.63014466480526e+002	(-3.32502533452757e+001dB,-9.15269427625837e+001°)
1.63580411711557e+002	(-3.32201610475960e+001dB,-9.15320308599653e+001°)
1.64148321762100e+002	(-3.31900688241942e+001dB,-9.15371373498463e+001°)
1.64718203453515e+002	(-3.31599766755877e+001dB,-9.15422622934658e+001°)
1.65290063630843e+002	(-3.31298846022975e+001dB,-9.15474057522836e+001°)
1.65863909162889e+002	(-3.30997926048483e+001dB,-9.15525677879811e+001°)
1.66439746942306e+002	(-3.30697006837683e+001dB,-9.15577484624617e+001°)
1.67017583885675e+002	(-3.30396088395895e+001dB,-9.15629478378514e+001°)
1.67597426933591e+002	(-3.30095170728476e+001dB,-9.15681659765000e+001°)
1.68179283050744e+002	(-3.29794253840817e+001dB,-9.15734029409817e+001°)
1.68763159226004e+002	(-3.29493337738351e+001dB,-9.15786587940956e+001°)
1.69349062472506e+002	(-3.29192422426545e+001dB,-9.15839335988665e+001°)
1.69936999827731e+002	(-3.28891507910906e+001dB,-9.15892274185459e+001°)
1.70526978353592e+002	(-3.28590594196979e+001dB,-9.15945403166126e+001°)
1.71119005136521e+002	(-3.28289681290347e+001dB,-9.15998723567734e+001°)
1.71713087287552e+002	(-3.27988769196631e+001dB,-9.16052236029637e+001°)
1.72309231942404e+002	(-3.27687857921493e+001dB,-9.16105941193487e+001°)
1.72907446261574e+002	(-3.27386947470632e+001dB,-9.16159839703239e+001°)
1.73507737430415e+002	(-3.27086037849788e+001dB,-9.16213932205157e+001°)
1.74110112659226e+002	(-3.26785129064741e+001dB,-9.16268219347825e+001°)
1.74714579183340e+002	(-3.26484221121310e+001dB,-9.16322701782152e+001°)
1.75321144263208e+002	(-3.26183314025355e+001dB,-9.16377380161380e+001°)
1.75929815184488e+002	(-3.25882407782777e+001dB,-9.16432255141094e+001°)
1.76540599258132e+002	(-3.25581502399517e+001dB,-9.16487327379228e+001°)
1.77153503820473e+002	(-3.25280597881558e+001dB,-9.16542597536071e+001°)
1.77768536233315e+002	(-3.24979694234925e+001dB,-9.16598066274279e+001°)
1.78385703884020e+002	(-3.24678791465683e+001dB,-9.16653734258880e+001°)
1.79005014185596e+002	(-3.24377889579941e+001dB,-9.16709602157281e+001°)
1.79626474576788e+002	(-3.24076988583849e+001dB,-9.16765670639279e+001°)
1.80250092522167e+002	(-3.23776088483600e+001dB,-9.16821940377067e+001°)
1.80875875512219e+002	(-3.23475189285431e+001dB,-9.16878412045240e+001°)
1.81503831063433e+002	(-3.23174290995622e+001dB,-9.16935086320808e+001°)
1.82133966718397e+002	(-3.22873393620495e+001dB,-9.16991963883200e+001°)
1.82766290045881e+002	(-3.22572497166417e+001dB,-9.17049045414273e+001°)
1.83400808640935e+002	(-3.22271601639799e+001dB,-9.17106331598320e+001°)
1.84037530124976e+002	(-3.21970707047098e+001dB,-9.17163823122078e+001°)
1.84676462145880e+002	(-3.21669813394813e+001dB,-9.17221520674736e+001°)
1.85317612378075e+002	(-3.21368920689490e+001dB,-9.17279424947946e+001°)
1.85960988522634e+002	(-3.21068028937720e+001dB,-9.17337536635826e+001°)
1.86606598307363e+002	(-3.20767138146140e+001dB,-9.17395856434971e+001°)
1.87254449486900e+002	(-3.20466248321433e+001dB,-9.17454385044463e+001°)
1.87904549842804e+002	(-3.20165359470327e+001dB,-9.17513123165875e+001°)
1.88556907183649e+002	(-3.19864471599599e+001dB,-9.17572071503282e+001°)
1.89211529345120e+002	(-3.19563584716072e+001dB,-9.17631230763271e+001°)
1.89868424190105e+002	(-3.19262698826615e+001dB,-9.17690601654944e+001°)
1.90527599608789e+002	(-3.18961813938147e+001dB,-9.17750184889932e+001°)
1.91189063518750e+002	(-3.18660930057633e+001dB,-9.17809981182400e+001°)
1.91852823865054e+002	(-3.18360047192089e+001dB,-9.17869991249056e+001°)
1.92518888620352e+002	(-3.18059165348576e+001dB,-9.17930215809160e+001°)
1.93187265784970e+002	(-3.17758284534207e+001dB,-9.17990655584532e+001°)
1.93857963387014e+002	(-3.17457404756143e+001dB,-9.18051311299562e+001°)
1.94530989482458e+002	(-3.17156526021595e+001dB,-9.18112183681217e+001°)
1.95206352155246e+002	(-3.16855648337825e+001dB,-9.18173273459047e+001°)
1.95884059517387e+002	(-3.16554771712144e+001dB,-9.18234581365201e+001°)
1.96564119709052e+002	(-3.16253896151913e+001dB,-9.18296108134428e+001°)
1.97246540898673e+002	(-3.15953021664547e+001dB,-9.18357854504089e+001°)
1.97931331283043e+002	(-3.15652148257511e+001dB,-9.18419821214166e+001°)
1.98618499087409e+002	(-3.15351275938320e+001dB,-9.18482009007270e+001°)
1.99308052565575e+002	(-3.15050404714544e+001dB,-9.18544418628651e+001°)
2.00000000000001e+002	(-3.14749534593803e+001dB,-9.18607050826202e+001°)
2.00694349701902e+002	(-3.14448665583773e+001dB,-9.18669906350476e+001°)
2.01391110011345e+002	(-3.14147797692180e+001dB,-9.18732985954687e+001°)
2.02090289297354e+002	(-3.13846930926807e+001dB,-9.18796290394723e+001°)
2.02791895958007e+002	(-3.13546065295487e+001dB,-9.18859820429154e+001°)
2.03495938420539e+002	(-3.13245200806110e+001dB,-9.18923576819242e+001°)
2.04202425141440e+002	(-3.12944337466621e+001dB,-9.18987560328946e+001°)
2.04911364606562e+002	(-3.12643475285019e+001dB,-9.19051771724936e+001°)
2.05622765331215e+002	(-3.12342614269360e+001dB,-9.19116211776601e+001°)
2.06336635860273e+002	(-3.12041754427753e+001dB,-9.19180881256053e+001°)
2.07052984768277e+002	(-3.11740895768366e+001dB,-9.19245780938143e+001°)
2.07771820659534e+002	(-3.11440038299422e+001dB,-9.19310911600467e+001°)
2.08493152168226e+002	(-3.11139182029204e+001dB,-9.19376274023373e+001°)
2.09216987958508e+002	(-3.10838326966049e+001dB,-9.19441868989974e+001°)
2.09943336724615e+002	(-3.10537473118353e+001dB,-9.19507697286155e+001°)
2.10672207190969e+002	(-3.10236620494571e+001dB,-9.19573759700584e+001°)
2.11403608112278e+002	(-3.09935769103216e+001dB,-9.19640057024717e+001°)
2.12137548273645e+002	(-3.09634918952861e+001dB,-9.19706590052814e+001°)
2.12874036490674e+002	(-3.09334070052137e+001dB,-9.19773359581941e+001°)
2.13613081609572e+002	(-3.09033222409737e+001dB,-9.19840366411986e+001°)
2.14354692507260e+002	(-3.08732376034411e+001dB,-9.19907611345663e+001°)
2.15098878091477e+002	(-3.08431530934974e+001dB,-9.19975095188526e+001°)
2.15845647300887e+002	(-3.08130687120298e+001dB,-9.20042818748973e+001°)
2.16595009105187e+002	(-3.07829844599320e+001dB,-9.20110782838262e+001°)
2.17346972505213e+002	(-3.07529003381038e+001dB,-9.20178988270515e+001°)
2.18101546533053e+002	(-3.07228163474510e+001dB,-9.20247435862730e+001°)
2.18858740252150e+002	(-3.06927324888861e+001dB,-9.20316126434792e+001°)
2.19618562757412e+002	(-3.06626487633276e+001dB,-9.20385060809478e+001°)
2.20381023175324e+002	(-3.06325651717006e+001dB,-9.20454239812472e+001°)
2.21146130664056e+002	(-3.06024817149365e+001dB,-9.20523664272372e+001°)
2.21913894413571e+002	(-3.05723983939731e+001dB,-9.20593335020697e+001°)
2.22684323645739e+002	(-3.05423152097549e+001dB,-9.20663252891903e+001°)
2.23457427614446e+002	(-3.05122321632328e+001dB,-9.20733418723388e+001°)
2.24233215605704e+002	(-3.04821492553644e+001dB,-9.20803833355503e+001°)
2.25011696937764e+002	(-3.04520664871138e+001dB,-9.20874497631563e+001°)
2.25792880961228e+002	(-3.04219838594521e+001dB,-9.20945412397854e+001°)
2.26576777059162e+002	(-3.03919013733567e+001dB,-9.21016578503646e+001°)
2.27363394647205e+002	(-3.03618190298121e+001dB,-9.21087996801203e+001°)
2.28152743173687e+002	(-3.03317368298097e+001dB,-9.21159668145789e+001°)
2.28944832119739e+002	(-3.03016547743474e+001dB,-9.21231593395683e+001°)
2.29739670999409e+002	(-3.02715728644304e+001dB,-9.21303773412184e+001°)
2.30537269359775e+002	(-3.02414911010707e+001dB,-9.21376209059626e+001°)
2.31337636781060e+002	(-3.02114094852873e+001dB,-9.21448901205386e+001°)
2.32140782876746e+002	(-3.01813280181065e+001dB,-9.21521850719893e+001°)
2.32946717293693e+002	(-3.01512467005614e+001dB,-9.21595058476639e+001°)
2.33755449712251e+002	(-3.01211655336924e+001dB,-9.21668525352190e+001°)
2.34566989846378e+002	(-3.00910845185473e+001dB,-9.21742252226194e+001°)
2.35381347443756e+002	(-3.00610036561809e+001dB,-9.21816239981395e+001°)
2.36198532285908e+002	(-3.00309229476554e+001dB,-9.21890489503641e+001°)
2.37018554188319e+002	(-3.00008423940406e+001dB,-9.21965001681893e+001°)
2.37841423000546e+002	(-2.99707619964133e+001dB,-9.22039777408237e+001°)
2.38667148606347e+002	(-2.99406817558583e+001dB,-9.22114817577895e+001°)
2.39495740923788e+002	(-2.99106016734673e+001dB,-9.22190123089235e+001°)
2.40327209905372e+002	(-2.98805217503402e+001dB,-9.22265694843780e+001°)
2.41161565538154e+002	(-2.98504419875841e+001dB,-9.22341533746220e+001°)
2.41998817843861e+002	(-2.98203623863140e+001dB,-9.22417640704423e+001°)
2.42838976879012e+002	(-2.97902829476525e+001dB,-9.22494016629445e+001°)
2.43682052735041e+002	(-2.97602036727301e+001dB,-9.22570662435537e+001°)
2.44528055538416e+002	(-2.97301245626851e+001dB,-9.22647579040164e+001°)
2.45376995450763e+002	(-2.97000456186638e+001dB,-9.22724767364007e+001°)
2.46228882668986e+002	(-2.96699668418202e+001dB,-9.22802228330980e+001°)
2.47083727425388e+002	(-2.96398882333166e+001dB,-9.22879962868235e+001°)
2.47941539987800e+002	(-2.96098097943232e+001dB,-9.22957971906179e+001°)
2.48802330659696e+002	(-2.95797315260183e+001dB,-9.23036256378480e+001°)
2.49666109780325e+002	(-2.95496534295886e+001dB,-9.23114817222080e+001°)
2.50532887724828e+002	(-2.95195755062287e+001dB,-9.23193655377207e+001°)
2.51402674904368e+002	(-2.94894977571417e+001dB,-9.23272771787382e+001°)
2.52275481766252e+002	(-2.94594201835390e+001dB,-9.23352167399434e+001°)
2.53151318794058e+002	(-2.94293427866406e+001dB,-9.23431843163509e+001°)
2.54030196507760e+002	(-2.93992655676745e+001dB,-9.23511800033081e+001°)
