Freq.	V(oh)
1.00000000000000e+002	(-6.87758465433198e+001dB,1.16233924544241e+002°)
1.00347174850950e+002	(-6.87397001256126e+001dB,1.16312295258571e+002°)
1.00695555005672e+002	(-6.87035201334045e+001dB,1.16390826977413e+002°)
1.01045144648676e+002	(-6.86673064273347e+001dB,1.16469519412000e+002°)
1.01395947979003e+002	(-6.86310588679875e+001dB,1.16548372267840e+002°)
1.01747969210269e+002	(-6.85947773158976e+001dB,1.16627385244692e+002°)
1.02101212570719e+002	(-6.85584616315574e+001dB,1.16706558036551e+002°)
1.02455682303280e+002	(-6.85221116754227e+001dB,1.16785890331619e+002°)
1.02811382665607e+002	(-6.84857273079194e+001dB,1.16865381812286e+002°)
1.03168317930136e+002	(-6.84493083894501e+001dB,1.16945032155113e+002°)
1.03526492384138e+002	(-6.84128547804001e+001dB,1.17024841030808e+002°)
1.03885910329766e+002	(-6.83763663411446e+001dB,1.17104808104205e+002°)
1.04246576084112e+002	(-6.83398429320550e+001dB,1.17184933034247e+002°)
1.04608493979253e+002	(-6.83032844135054e+001dB,1.17265215473964e+002°)
1.04971668362307e+002	(-6.82666906458800e+001dB,1.17345655070456e+002°)
1.05336103595484e+002	(-6.82300614895792e+001dB,1.17426251464872e+002°)
1.05701804056138e+002	(-6.81933968050267e+001dB,1.17507004292393e+002°)
1.06068774136822e+002	(-6.81566964526765e+001dB,1.17587913182213e+002°)
1.06437018245336e+002	(-6.81199602930197e+001dB,1.17668977757523e+002°)
1.06806540804785e+002	(-6.80831881865917e+001dB,1.17750197635491e+002°)
1.07177346253629e+002	(-6.80463799939790e+001dB,1.17831572427246e+002°)
1.07549439045738e+002	(-6.80095355758264e+001dB,1.17913101737863e+002°)
1.07922823650443e+002	(-6.79726547928442e+001dB,1.17994785166343e+002°)
1.08297504552593e+002	(-6.79357375058154e+001dB,1.18076622305601e+002°)
1.08673486252606e+002	(-6.78987835756028e+001dB,1.18158612742449e+002°)
1.09050773266526e+002	(-6.78617928631565e+001dB,1.18240756057580e+002°)
1.09429370126074e+002	(-6.78247652295211e+001dB,1.18323051825556e+002°)
1.09809281378705e+002	(-6.77877005358432e+001dB,1.18405499614788e+002°)
1.10190511587661e+002	(-6.77505986433788e+001dB,1.18488098987531e+002°)
1.10573065332027e+002	(-6.77134594135008e+001dB,1.18570849499861e+002°)
1.10956947206785e+002	(-6.76762827077064e+001dB,1.18653750701670e+002°)
1.11342161822869e+002	(-6.76390683876248e+001dB,1.18736802136649e+002°)
1.11728713807222e+002	(-6.76018163150249e+001dB,1.18820003342277e+002°)
1.12116607802851e+002	(-6.75645263518228e+001dB,1.18903353849808e+002°)
1.12505848468881e+002	(-6.75271983600898e+001dB,1.18986853184263e+002°)
1.12896440480613e+002	(-6.74898322020595e+001dB,1.19070500864416e+002°)
1.13288388529580e+002	(-6.74524277401366e+001dB,1.19154296402785e+002°)
1.13681697323602e+002	(-6.74149848369037e+001dB,1.19238239305624e+002°)
1.14076371586843e+002	(-6.73775033551300e+001dB,1.19322329072908e+002°)
1.14472416059869e+002	(-6.73399831577787e+001dB,1.19406565198332e+002°)
1.14869835499704e+002	(-6.73024241080151e+001dB,1.19490947169295e+002°)
1.15268634679887e+002	(-6.72648260692148e+001dB,1.19575474466897e+002°)
1.15668818390529e+002	(-6.72271889049716e+001dB,1.19660146565932e+002°)
1.16070391438372e+002	(-6.71895124791054e+001dB,1.19744962934874e+002°)
1.16473358646846e+002	(-6.71517966556704e+001dB,1.19829923035882e+002°)
1.16877724856125e+002	(-6.71140412989636e+001dB,1.19915026324781e+002°)
1.17283494923188e+002	(-6.70762462735325e+001dB,1.20000272251070e+002°)
1.17690673721877e+002	(-6.70384114441836e+001dB,1.20085660257905e+002°)
1.18099266142953e+002	(-6.70005366759905e+001dB,1.20171189782103e+002°)
1.18509277094158e+002	(-6.69626218343023e+001dB,1.20256860254135e+002°)
1.18920711500272e+002	(-6.69246667847518e+001dB,1.20342671098120e+002°)
1.19333574303172e+002	(-6.68866713932642e+001dB,1.20428621731829e+002°)
1.19747870461893e+002	(-6.68486355260647e+001dB,1.20514711566677e+002°)
1.20163604952685e+002	(-6.68105590496880e+001dB,1.20600940007721e+002°)
1.20580782769076e+002	(-6.67724418309856e+001dB,1.20687306453665e+002°)
1.20999408921930e+002	(-6.67342837371353e+001dB,1.20773810296851e+002°)
1.21419488439505e+002	(-6.66960846356488e+001dB,1.20860450923268e+002°)
1.21841026367519e+002	(-6.66578443943809e+001dB,1.20947227712542e+002°)
1.22264027769207e+002	(-6.66195628815377e+001dB,1.21034140037948e+002°)
1.22688497725381e+002	(-6.65812399656851e+001dB,1.21121187266404e+002°)
1.23114441334492e+002	(-6.65428755157578e+001dB,1.21208368758475e+002°)
1.23541863712693e+002	(-6.65044694010675e+001dB,1.21295683868379e+002°)
1.23970769993899e+002	(-6.64660214913115e+001dB,1.21383131943984e+002°)
1.24401165329847e+002	(-6.64275316565818e+001dB,1.21470712326820e+002°)
1.24833054890162e+002	(-6.63889997673736e+001dB,1.21558424352077e+002°)
1.25266443862413e+002	(-6.63504256945935e+001dB,1.21646267348614e+002°)
1.25701337452183e+002	(-6.63118093095689e+001dB,1.21734240638960e+002°)
1.26137740883125e+002	(-6.62731504840565e+001dB,1.21822343539328e+002°)
1.26575659397028e+002	(-6.62344490902507e+001dB,1.21910575359614e+002°)
1.27015098253879e+002	(-6.61957050007930e+001dB,1.21998935403411e+002°)
1.27456062731927e+002	(-6.61569180887800e+001dB,1.22087422968012e+002°)
1.27898558127743e+002	(-6.61180882277729e+001dB,1.22176037344423e+002°)
1.28342589756291e+002	(-6.60792152918060e+001dB,1.22264777817369e+002°)
1.28788162950983e+002	(-6.60402991553951e+001dB,1.22353643665306e+002°)
1.29235283063750e+002	(-6.60013396935471e+001dB,1.22442634160432e+002°)
1.29683955465101e+002	(-6.59623367817681e+001dB,1.22531748568695e+002°)
1.30134185544194e+002	(-6.59232902960729e+001dB,1.22620986149812e+002°)
1.30585978708892e+002	(-6.58842001129931e+001dB,1.22710346157271e+002°)
1.31039340385837e+002	(-6.58450661095865e+001dB,1.22799827838356e+002°)
1.31494276020508e+002	(-6.58058881634454e+001dB,1.22889430434150e+002°)
1.31950791077290e+002	(-6.57666661527063e+001dB,1.22979153179556e+002°)
1.32408891039540e+002	(-6.57273999560577e+001dB,1.23068995303313e+002°)
1.32868581409652e+002	(-6.56880894527497e+001dB,1.23158956028005e+002°)
1.33329867709120e+002	(-6.56487345226025e+001dB,1.23249034570083e+002°)
1.33792755478612e+002	(-6.56093350460153e+001dB,1.23339230139882e+002°)
1.34257250278027e+002	(-6.55698909039751e+001dB,1.23429541941637e+002°)
1.34723357686569e+002	(-6.55304019780655e+001dB,1.23519969173498e+002°)
1.35191083302813e+002	(-6.54908681504757e+001dB,1.23610511027558e+002°)
1.35660432744768e+002	(-6.54512893040091e+001dB,1.23701166689863e+002°)
1.36131411649948e+002	(-6.54116653220921e+001dB,1.23791935340437e+002°)
1.36604025675440e+002	(-6.53719960887829e+001dB,1.23882816153305e+002°)
1.37078280497971e+002	(-6.53322814887805e+001dB,1.23973808296509e+002°)
1.37554181813975e+002	(-6.52925214074332e+001dB,1.24064910932135e+002°)
1.38031735339663e+002	(-6.52527157307472e+001dB,1.24156123216333e+002°)
1.38510946811093e+002	(-6.52128643453960e+001dB,1.24247444299342e+002°)
1.38991821984234e+002	(-6.51729671387282e+001dB,1.24338873325515e+002°)
1.39474366635041e+002	(-6.51330239987769e+001dB,1.24430409433343e+002°)
1.39958586559520e+002	(-6.50930348142681e+001dB,1.24522051755478e+002°)
1.40444487573800e+002	(-6.50529994746294e+001dB,1.24613799418764e+002°)
1.40932075514202e+002	(-6.50129178699985e+001dB,1.24705651544260e+002°)
1.41421356237310e+002	(-6.49727898912320e+001dB,1.24797607247272e+002°)
1.41912335620039e+002	(-6.49326154299139e+001dB,1.24889665637375e+002°)
1.42405019559708e+002	(-6.48923943783641e+001dB,1.24981825818447e+002°)
1.42899413974110e+002	(-6.48521266296469e+001dB,1.25074086888697e+002°)
1.43395524801583e+002	(-6.48118120775798e+001dB,1.25166447940692e+002°)
1.43893358001083e+002	(-6.47714506167414e+001dB,1.25258908061396e+002°)
1.44392919552250e+002	(-6.47310421424806e+001dB,1.25351466332191e+002°)
1.44894215455488e+002	(-6.46905865509241e+001dB,1.25444121828919e+002°)
1.45397251732032e+002	(-6.46500837389855e+001dB,1.25536873621907e+002°)
1.45902034424018e+002	(-6.46095336043735e+001dB,1.25629720776006e+002°)
1.46408569594563e+002	(-6.45689360455996e+001dB,1.25722662350621e+002°)
1.46916863327831e+002	(-6.45282909619873e+001dB,1.25815697399751e+002°)
1.47426921729111e+002	(-6.44875982536795e+001dB,1.25908824972018e+002°)
1.47938750924884e+002	(-6.44468578216471e+001dB,1.26002044110708e+002°)
1.48452357062906e+002	(-6.44060695676970e+001dB,1.26095353853806e+002°)
1.48967746312271e+002	(-6.43652333944803e+001dB,1.26188753234032e+002°)
1.49484924863494e+002	(-6.43243492055001e+001dB,1.26282241278884e+002°)
1.50003898928582e+002	(-6.42834169051197e+001dB,1.26375817010670e+002°)
1.50524674741107e+002	(-6.42424363985705e+001dB,1.26469479446552e+002°)
1.51047258556283e+002	(-6.42014075919600e+001dB,1.26563227598585e+002°)
1.51571656651040e+002	(-6.41603303922792e+001dB,1.26657060473755e+002°)
1.52097875324102e+002	(-6.41192047074110e+001dB,1.26750977074025e+002°)
1.52625920896057e+002	(-6.40780304461375e+001dB,1.26844976396373e+002°)
1.53155799709439e+002	(-6.40368075181478e+001dB,1.26939057432837e+002°)
1.53687518128802e+002	(-6.39955358340458e+001dB,1.27033219170554e+002°)
1.54221082540795e+002	(-6.39542153053575e+001dB,1.27127460591810e+002°)
1.54756499354240e+002	(-6.39128458445388e+001dB,1.27221780674078e+002°)
1.55293775000209e+002	(-6.38714273649823e+001dB,1.27316178390069e+002°)
1.55832915932101e+002	(-6.38299597810258e+001dB,1.27410652707771e+002°)
1.56373928625719e+002	(-6.37884430079586e+001dB,1.27505202590501e+002°)
1.56916819579351e+002	(-6.37468769620293e+001dB,1.27599826996950e+002°)
1.57461595313841e+002	(-6.37052615604525e+001dB,1.27694524881227e+002°)
1.58008262372676e+002	(-6.36635967214168e+001dB,1.27789295192912e+002°)
1.58556827322058e+002	(-6.36218823640909e+001dB,1.27884136877101e+002°)
1.59107296750985e+002	(-6.35801184086312e+001dB,1.27979048874457e+002°)
1.59659677271331e+002	(-6.35383047761884e+001dB,1.28074030121260e+002°)
1.60213975517925e+002	(-6.34964413889147e+001dB,1.28169079549454e+002°)
1.60770198148631e+002	(-6.34545281699700e+001dB,1.28264196086702e+002°)
1.61328351844426e+002	(-6.34125650435291e+001dB,1.28359378656436e+002°)
1.61888443309483e+002	(-6.33705519347883e+001dB,1.28454626177906e+002°)
1.62450479271248e+002	(-6.33284887699716e+001dB,1.28549937566239e+002°)
1.63014466480526e+002	(-6.32863754763375e+001dB,1.28645311732484e+002°)
1.63580411711557e+002	(-6.32442119821850e+001dB,1.28740747583673e+002°)
1.64148321762100e+002	(-6.32019982168605e+001dB,1.28836244022869e+002°)
1.64718203453515e+002	(-6.31597341107635e+001dB,1.28931799949227e+002°)
1.65290063630843e+002	(-6.31174195953529e+001dB,1.29027414258041e+002°)
1.65863909162889e+002	(-6.30750546031530e+001dB,1.29123085840810e+002°)
1.66439746942306e+002	(-6.30326390677597e+001dB,1.29218813585283e+002°)
1.67017583885675e+002	(-6.29901729238463e+001dB,1.29314596375526e+002°)
1.67597426933591e+002	(-6.29476561071689e+001dB,1.29410433091970e+002°)
1.68179283050744e+002	(-6.29050885545727e+001dB,1.29506322611478e+002°)
1.68763159226004e+002	(-6.28624702039972e+001dB,1.29602263807394e+002°)
1.69349062472506e+002	(-6.28198009944821e+001dB,1.29698255549608e+002°)
1.69936999827731e+002	(-6.27770808661720e+001dB,1.29794296704613e+002°)
1.70526978353592e+002	(-6.27343097603229e+001dB,1.29890386135566e+002°)
1.71119005136521e+002	(-6.26914876193062e+001dB,1.29986522702343e+002°)
1.71713087287552e+002	(-6.26486143866149e+001dB,1.30082705261606e+002°)
1.72309231942404e+002	(-6.26056900068678e+001dB,1.30178932666861e+002°)
1.72907446261574e+002	(-6.25627144258151e+001dB,1.30275203768519e+002°)
1.73507737430415e+002	(-6.25196875903429e+001dB,1.30371517413957e+002°)
1.74110112659226e+002	(-6.24766094484782e+001dB,1.30467872447582e+002°)
1.74714579183340e+002	(-6.24334799493933e+001dB,1.30564267710894e+002°)
1.75321144263208e+002	(-6.23902990434104e+001dB,1.30660702042548e+002°)
1.75929815184488e+002	(-6.23470666820064e+001dB,1.30757174278414e+002°)
1.76540599258132e+002	(-6.23037828178167e+001dB,1.30853683251648e+002°)
1.77153503820473e+002	(-6.22604474046400e+001dB,1.30950227792749e+002°)
1.77768536233315e+002	(-6.22170603974421e+001dB,1.31046806729630e+002°)
1.78385703884020e+002	(-6.21736217523600e+001dB,1.31143418887676e+002°)
1.79005014185596e+002	(-6.21301314267058e+001dB,1.31240063089815e+002°)
1.79626474576788e+002	(-6.20865893789707e+001dB,1.31336738156579e+002°)
1.80250092522167e+002	(-6.20429955688285e+001dB,1.31433442906175e+002°)
1.80875875512219e+002	(-6.19993499571396e+001dB,1.31530176154546e+002°)
1.81503831063433e+002	(-6.19556525059537e+001dB,1.31626936715440e+002°)
1.82133966718397e+002	(-6.19119031785142e+001dB,1.31723723400476e+002°)
1.82766290045881e+002	(-6.18681019392607e+001dB,1.31820535019213e+002°)
1.83400808640935e+002	(-6.18242487538326e+001dB,1.31917370379216e+002°)
1.84037530124976e+002	(-6.17803435890719e+001dB,1.32014228286121e+002°)
1.84676462145880e+002	(-6.17363864130265e+001dB,1.32111107543708e+002°)
1.85317612378075e+002	(-6.16923771949523e+001dB,1.32208006953965e+002°)
1.85960988522634e+002	(-6.16483159053169e+001dB,1.32304925317161e+002°)
1.86606598307363e+002	(-6.16042025158014e+001dB,1.32401861431907e+002°)
1.87254449486900e+002	(-6.15600369993034e+001dB,1.32498814095233e+002°)
1.87904549842804e+002	(-6.15158193299391e+001dB,1.32595782102652e+002°)
1.88556907183649e+002	(-6.14715494830453e+001dB,1.32692764248233e+002°)
1.89211529345120e+002	(-6.14272274351824e+001dB,1.32789759324664e+002°)
1.89868424190105e+002	(-6.13828531641355e+001dB,1.32886766123331e+002°)
1.90527599608789e+002	(-6.13384266489168e+001dB,1.32983783434379e+002°)
1.91189063518750e+002	(-6.12939478697672e+001dB,1.33080810046789e+002°)
1.91852823865054e+002	(-6.12494168081582e+001dB,1.33177844748441e+002°)
1.92518888620352e+002	(-6.12048334467932e+001dB,1.33274886326193e+002°)
1.93187265784970e+002	(-6.11601977696089e+001dB,1.33371933565944e+002°)
1.93857963387014e+002	(-6.11155097617769e+001dB,1.33468985252706e+002°)
1.94530989482458e+002	(-6.10707694097047e+001dB,1.33566040170680e+002°)
1.95206352155246e+002	(-6.10259767010367e+001dB,1.33663097103318e+002°)
1.95884059517387e+002	(-6.09811316246554e+001dB,1.33760154833403e+002°)
1.96564119709052e+002	(-6.09362341706819e+001dB,1.33857212143113e+002°)
1.97246540898673e+002	(-6.08912843304769e+001dB,1.33954267814095e+002°)
1.97931331283043e+002	(-6.08462820966413e+001dB,1.34051320627536e+002°)
1.98618499087409e+002	(-6.08012274630163e+001dB,1.34148369364234e+002°)
1.99308052565575e+002	(-6.07561204246843e+001dB,1.34245412804669e+002°)
2.00000000000001e+002	(-6.07109609779686e+001dB,1.34342449729074e+002°)
2.00694349701902e+002	(-6.06657491204339e+001dB,1.34439478917506e+002°)
2.01391110011345e+002	(-6.06204848508861e+001dB,1.34536499149919e+002°)
2.02090289297354e+002	(-6.05751681693722e+001dB,1.34633509206233e+002°)
2.02791895958007e+002	(-6.05297990771800e+001dB,1.34730507866406e+002°)
2.03495938420539e+002	(-6.04843775768378e+001dB,1.34827493910506e+002°)
2.04202425141440e+002	(-6.04389036721140e+001dB,1.34924466118783e+002°)
2.04911364606562e+002	(-6.03933773680163e+001dB,1.35021423271735e+002°)
2.05622765331215e+002	(-6.03477986707909e+001dB,1.35118364150185e+002°)
2.06336635860273e+002	(-6.03021675879218e+001dB,1.35215287535352e+002°)
2.07052984768277e+002	(-6.02564841281301e+001dB,1.35312192208916e+002°)
2.07771820659534e+002	(-6.02107483013721e+001dB,1.35409076953094e+002°)
2.08493152168226e+002	(-6.01649601188390e+001dB,1.35505940550711e+002°)
2.09216987958508e+002	(-6.01191195929549e+001dB,1.35602781785267e+002°)
2.09943336724615e+002	(-6.00732267373756e+001dB,1.35699599441009e+002°)
2.10672207190969e+002	(-6.00272815669871e+001dB,1.35796392303005e+002°)
2.11403608112278e+002	(-5.99812840979037e+001dB,1.35893159157210e+002°)
2.12137548273645e+002	(-5.99352343474663e+001dB,1.35989898790535e+002°)
2.12874036490674e+002	(-5.98891323342406e+001dB,1.36086609990923e+002°)
2.13613081609572e+002	(-5.98429780780147e+001dB,1.36183291547414e+002°)
2.14354692507260e+002	(-5.97967715997972e+001dB,1.36279942250215e+002°)
2.15098878091477e+002	(-5.97505129218150e+001dB,1.36376560890770e+002°)
2.15845647300887e+002	(-5.97042020675105e+001dB,1.36473146261832e+002°)
2.16595009105187e+002	(-5.96578390615395e+001dB,1.36569697157528e+002°)
2.17346972505213e+002	(-5.96114239297683e+001dB,1.36666212373429e+002°)
2.18101546533053e+002	(-5.95649566992712e+001dB,1.36762690706619e+002°)
2.18858740252150e+002	(-5.95184373983272e+001dB,1.36859130955765e+002°)
2.19618562757412e+002	(-5.94718660564176e+001dB,1.36955531921182e+002°)
2.20381023175324e+002	(-5.94252427042225e+001dB,1.37051892404903e+002°)
2.21146130664056e+002	(-5.93785673736175e+001dB,1.37148211210746e+002°)
2.21913894413571e+002	(-5.93318400976709e+001dB,1.37244487144380e+002°)
2.22684323645739e+002	(-5.92850609106397e+001dB,1.37340719013396e+002°)
2.23457427614446e+002	(-5.92382298479666e+001dB,1.37436905627369e+002°)
2.24233215605704e+002	(-5.91913469462758e+001dB,1.37533045797927e+002°)
2.25011696937764e+002	(-5.91444122433694e+001dB,1.37629138338817e+002°)
2.25792880961228e+002	(-5.90974257782241e+001dB,1.37725182065970e+002°)
2.26576777059162e+002	(-5.90503875909864e+001dB,1.37821175797566e+002°)
2.27363394647205e+002	(-5.90032977229688e+001dB,1.37917118354102e+002°)
2.28152743173687e+002	(-5.89561562166460e+001dB,1.38013008558453e+002°)
2.28944832119739e+002	(-5.89089631156500e+001dB,1.38108845235941e+002°)
2.29739670999409e+002	(-5.88617184647660e+001dB,1.38204627214393e+002°)
2.30537269359775e+002	(-5.88144223099281e+001dB,1.38300353324209e+002°)
2.31337636781060e+002	(-5.87670746982142e+001dB,1.38396022398426e+002°)
2.32140782876746e+002	(-5.87196756778417e+001dB,1.38491633272777e+002°)
2.32946717293693e+002	(-5.86722252981624e+001dB,1.38587184785758e+002°)
2.33755449712251e+002	(-5.86247236096578e+001dB,1.38682675778684e+002°)
2.34566989846378e+002	(-5.85771706639340e+001dB,1.38778105095760e+002°)
2.35381347443756e+002	(-5.85295665137166e+001dB,1.38873471584131e+002°)
2.36198532285908e+002	(-5.84819112128454e+001dB,1.38968774093954e+002°)
2.37018554188319e+002	(-5.84342048162691e+001dB,1.39064011478448e+002°)
2.37841423000546e+002	(-5.83864473800402e+001dB,1.39159182593963e+002°)
2.38667148606347e+002	(-5.83386389613092e+001dB,1.39254286300033e+002°)
2.39495740923788e+002	(-5.82907796183188e+001dB,1.39349321459438e+002°)
2.40327209905372e+002	(-5.82428694103987e+001dB,1.39444286938262e+002°)
2.41161565538154e+002	(-5.81949083979598e+001dB,1.39539181605952e+002°)
2.41998817843861e+002	(-5.81468966424876e+001dB,1.39634004335374e+002°)
2.42838976879012e+002	(-5.80988342065374e+001dB,1.39728754002870e+002°)
2.43682052735041e+002	(-5.80507211537271e+001dB,1.39823429488317e+002°)
2.44528055538416e+002	(-5.80025575487320e+001dB,1.39918029675179e+002°)
2.45376995450763e+002	(-5.79543434572780e+001dB,1.40012553450569e+002°)
2.46228882668986e+002	(-5.79060789461354e+001dB,1.40106999705295e+002°)
2.47083727425388e+002	(-5.78577640831127e+001dB,1.40201367333925e+002°)
2.47941539987800e+002	(-5.78093989370500e+001dB,1.40295655234831e+002°)
2.48802330659696e+002	(-5.77609835778126e+001dB,1.40389862310251e+002°)
2.49666109780325e+002	(-5.77125180762840e+001dB,1.40483987466337e+002°)
2.50532887724828e+002	(-5.76640025043595e+001dB,1.40578029613206e+002°)
2.51402674904368e+002	(-5.76154369349395e+001dB,1.40671987664998e+002°)
2.52275481766252e+002	(-5.75668214419221e+001dB,1.40765860539921e+002°)
2.53151318794058e+002	(-5.75181561001970e+001dB,1.40859647160306e+002°)
2.54030196507760e+002	(-5.74694409856375e+001dB,1.40953346452655e+002°)
2.54912125463855e+002	(-5.74206761750944e+001dB,1.41046957347690e+002°)
2.55797116255488e+002	(-5.73718617463881e+001dB,1.41140478780406e+002°)
2.56685179512583e+002	(-5.73229977783015e+001dB,1.41233909690112e+002°)
