Freq.	V(oh_full)
1.00000000000000e+002	(-3.74939786424875e+001dB,-9.10693910401955e+001°)
1.00347174850950e+002	(-3.74638808321996e+001dB,-9.10727572216866e+001°)
1.00695555005672e+002	(-3.74337830576186e+001dB,-9.10761362851791e+001°)
1.01045144648676e+002	(-3.74036853189956e+001dB,-9.10795282712260e+001°)
1.01395947979003e+002	(-3.73735876165832e+001dB,-9.10829332205355e+001°)
1.01747969210269e+002	(-3.73434899506357e+001dB,-9.10863511739709e+001°)
1.02101212570719e+002	(-3.73133923214094e+001dB,-9.10897821725514e+001°)
1.02455682303280e+002	(-3.72832947291623e+001dB,-9.10932262574525e+001°)
1.02811382665607e+002	(-3.72531971741539e+001dB,-9.10966834700067e+001°)
1.03168317930136e+002	(-3.72230996566459e+001dB,-9.11001538517035e+001°)
1.03526492384138e+002	(-3.71930021769015e+001dB,-9.11036374441904e+001°)
1.03885910329766e+002	(-3.71629047351858e+001dB,-9.11071342892732e+001°)
1.04246576084112e+002	(-3.71328073317657e+001dB,-9.11106444289165e+001°)
1.04608493979253e+002	(-3.71027099669101e+001dB,-9.11141679052440e+001°)
1.04971668362307e+002	(-3.70726126408895e+001dB,-9.11177047605395e+001°)
1.05336103595484e+002	(-3.70425153539765e+001dB,-9.11212550372469e+001°)
1.05701804056138e+002	(-3.70124181064454e+001dB,-9.11248187779709e+001°)
1.06068774136822e+002	(-3.69823208985725e+001dB,-9.11283960254776e+001°)
1.06437018245336e+002	(-3.69522237306359e+001dB,-9.11319868226950e+001°)
1.06806540804785e+002	(-3.69221266029157e+001dB,-9.11355912127132e+001°)
1.07177346253629e+002	(-3.68920295156940e+001dB,-9.11392092387853e+001°)
1.07549439045738e+002	(-3.68619324692546e+001dB,-9.11428409443279e+001°)
1.07922823650443e+002	(-3.68318354638835e+001dB,-9.11464863729211e+001°)
1.08297504552593e+002	(-3.68017384998686e+001dB,-9.11501455683098e+001°)
1.08673486252606e+002	(-3.67716415774998e+001dB,-9.11538185744035e+001°)
1.09050773266526e+002	(-3.67415446970689e+001dB,-9.11575054352774e+001°)
1.09429370126074e+002	(-3.67114478588697e+001dB,-9.11612061951726e+001°)
1.09809281378705e+002	(-3.66813510631983e+001dB,-9.11649208984965e+001°)
1.10190511587661e+002	(-3.66512543103525e+001dB,-9.11686495898239e+001°)
1.10573065332027e+002	(-3.66211576006325e+001dB,-9.11723923138968e+001°)
1.10956947206785e+002	(-3.65910609343401e+001dB,-9.11761491156253e+001°)
1.11342161822869e+002	(-3.65609643117797e+001dB,-9.11799200400885e+001°)
1.11728713807222e+002	(-3.65308677332574e+001dB,-9.11837051325343e+001°)
1.12116607802851e+002	(-3.65007711990817e+001dB,-9.11875044383804e+001°)
1.12505848468881e+002	(-3.64706747095631e+001dB,-9.11913180032147e+001°)
1.12896440480613e+002	(-3.64405782650141e+001dB,-9.11951458727960e+001°)
1.13288388529580e+002	(-3.64104818657497e+001dB,-9.11989880930542e+001°)
1.13681697323602e+002	(-3.63803855120868e+001dB,-9.12028447100914e+001°)
1.14076371586843e+002	(-3.63502892043445e+001dB,-9.12067157701819e+001°)
1.14472416059869e+002	(-3.63201929428443e+001dB,-9.12106013197729e+001°)
1.14869835499704e+002	(-3.62900967279097e+001dB,-9.12145014054853e+001°)
1.15268634679887e+002	(-3.62600005598665e+001dB,-9.12184160741139e+001°)
1.15668818390529e+002	(-3.62299044390430e+001dB,-9.12223453726285e+001°)
1.16070391438372e+002	(-3.61998083657693e+001dB,-9.12262893481736e+001°)
1.16473358646846e+002	(-3.61697123403781e+001dB,-9.12302480480697e+001°)
1.16877724856125e+002	(-3.61396163632044e+001dB,-9.12342215198137e+001°)
1.17283494923188e+002	(-3.61095204345854e+001dB,-9.12382098110793e+001°)
1.17690673721877e+002	(-3.60794245548607e+001dB,-9.12422129697175e+001°)
1.18099266142953e+002	(-3.60493287243722e+001dB,-9.12462310437576e+001°)
1.18509277094158e+002	(-3.60192329434641e+001dB,-9.12502640814072e+001°)
1.18920711500272e+002	(-3.59891372124832e+001dB,-9.12543121310533e+001°)
1.19333574303172e+002	(-3.59590415317785e+001dB,-9.12583752412625e+001°)
1.19747870461893e+002	(-3.59289459017015e+001dB,-9.12624534607818e+001°)
1.20163604952685e+002	(-3.58988503226060e+001dB,-9.12665468385389e+001°)
1.20580782769076e+002	(-3.58687547948485e+001dB,-9.12706554236433e+001°)
1.20999408921930e+002	(-3.58386593187878e+001dB,-9.12747792653862e+001°)
1.21419488439505e+002	(-3.58085638947851e+001dB,-9.12789184132418e+001°)
1.21841026367519e+002	(-3.57784685232042e+001dB,-9.12830729168672e+001°)
1.22264027769207e+002	(-3.57483732044116e+001dB,-9.12872428261035e+001°)
1.22688497725381e+002	(-3.57182779387759e+001dB,-9.12914281909763e+001°)
1.23114441334492e+002	(-3.56881827266686e+001dB,-9.12956290616960e+001°)
1.23541863712693e+002	(-3.56580875684637e+001dB,-9.12998454886586e+001°)
1.23970769993899e+002	(-3.56279924645377e+001dB,-9.13040775224467e+001°)
1.24401165329847e+002	(-3.55978974152698e+001dB,-9.13083252138291e+001°)
1.24833054890162e+002	(-3.55678024210418e+001dB,-9.13125886137625e+001°)
1.25266443862413e+002	(-3.55377074822380e+001dB,-9.13168677733914e+001°)
1.25701337452183e+002	(-3.55076125992457e+001dB,-9.13211627440489e+001°)
1.26137740883125e+002	(-3.54775177724544e+001dB,-9.13254735772574e+001°)
1.26575659397028e+002	(-3.54474230022568e+001dB,-9.13298003247291e+001°)
1.27015098253879e+002	(-3.54173282890480e+001dB,-9.13341430383667e+001°)
1.27456062731927e+002	(-3.53872336332258e+001dB,-9.13385017702640e+001°)
1.27898558127743e+002	(-3.53571390351910e+001dB,-9.13428765727063e+001°)
1.28342589756291e+002	(-3.53270444953470e+001dB,-9.13472674981714e+001°)
1.28788162950983e+002	(-3.52969500141000e+001dB,-9.13516745993301e+001°)
1.29235283063750e+002	(-3.52668555918591e+001dB,-9.13560979290465e+001°)
1.29683955465101e+002	(-3.52367612290361e+001dB,-9.13605375403791e+001°)
1.30134185544194e+002	(-3.52066669260458e+001dB,-9.13649934865810e+001°)
1.30585978708892e+002	(-3.51765726833058e+001dB,-9.13694658211011e+001°)
1.31039340385837e+002	(-3.51464785012366e+001dB,-9.13739545975840e+001°)
1.31494276020508e+002	(-3.51163843802615e+001dB,-9.13784598698712e+001°)
1.31950791077290e+002	(-3.50862903208069e+001dB,-9.13829816920016e+001°)
1.32408891039540e+002	(-3.50561963233022e+001dB,-9.13875201182120e+001°)
1.32868581409652e+002	(-3.50261023881795e+001dB,-9.13920752029378e+001°)
1.33329867709120e+002	(-3.49960085158741e+001dB,-9.13966470008139e+001°)
1.33792755478612e+002	(-3.49659147068242e+001dB,-9.14012355666749e+001°)
1.34257250278027e+002	(-3.49358209614713e+001dB,-9.14058409555561e+001°)
1.34723357686569e+002	(-3.49057272802596e+001dB,-9.14104632226940e+001°)
1.35191083302813e+002	(-3.48756336636365e+001dB,-9.14151024235270e+001°)
1.35660432744768e+002	(-3.48455401120528e+001dB,-9.14197586136961e+001°)
1.36131411649948e+002	(-3.48154466259618e+001dB,-9.14244318490455e+001°)
1.36604025675440e+002	(-3.47853532058206e+001dB,-9.14291221856230e+001°)
1.37078280497971e+002	(-3.47552598520890e+001dB,-9.14338296796814e+001°)
1.37554181813975e+002	(-3.47251665652302e+001dB,-9.14385543876784e+001°)
1.38031735339663e+002	(-3.46950733457106e+001dB,-9.14432963662776e+001°)
1.38510946811093e+002	(-3.46649801939997e+001dB,-9.14480556723491e+001°)
1.38991821984234e+002	(-3.46348871105705e+001dB,-9.14528323629704e+001°)
1.39474366635041e+002	(-3.46047940958990e+001dB,-9.14576264954267e+001°)
1.39958586559520e+002	(-3.45747011504646e+001dB,-9.14624381272119e+001°)
1.40444487573800e+002	(-3.45446082747501e+001dB,-9.14672673160290e+001°)
1.40932075514202e+002	(-3.45145154692417e+001dB,-9.14721141197911e+001°)
1.41421356237310e+002	(-3.44844227344287e+001dB,-9.14769785966218e+001°)
1.41912335620039e+002	(-3.44543300708040e+001dB,-9.14818608048560e+001°)
1.42405019559708e+002	(-3.44242374788638e+001dB,-9.14867608030408e+001°)
1.42899413974110e+002	(-3.43941449591080e+001dB,-9.14916786499357e+001°)
1.43395524801583e+002	(-3.43640525120396e+001dB,-9.14966144045137e+001°)
1.43893358001083e+002	(-3.43339601381653e+001dB,-9.15015681259620e+001°)
1.44392919552250e+002	(-3.43038678379953e+001dB,-9.15065398736824e+001°)
1.44894215455488e+002	(-3.42737756120433e+001dB,-9.15115297072923e+001°)
1.45397251732032e+002	(-3.42436834608266e+001dB,-9.15165376866253e+001°)
1.45902034424018e+002	(-3.42135913848660e+001dB,-9.15215638717318e+001°)
1.46408569594563e+002	(-3.41834993846859e+001dB,-9.15266083228799e+001°)
1.46916863327831e+002	(-3.41534074608145e+001dB,-9.15316711005559e+001°)
1.47426921729111e+002	(-3.41233156137836e+001dB,-9.15367522654653e+001°)
1.47938750924884e+002	(-3.40932238441285e+001dB,-9.15418518785333e+001°)
1.48452357062906e+002	(-3.40631321523885e+001dB,-9.15469700009055e+001°)
1.48967746312271e+002	(-3.40330405391065e+001dB,-9.15521066939489e+001°)
1.49484924863494e+002	(-3.40029490048290e+001dB,-9.15572620192521e+001°)
1.50003898928582e+002	(-3.39728575501066e+001dB,-9.15624360386266e+001°)
1.50524674741107e+002	(-3.39427661754935e+001dB,-9.15676288141073e+001°)
1.51047258556283e+002	(-3.39126748815479e+001dB,-9.15728404079529e+001°)
1.51571656651040e+002	(-3.38825836688317e+001dB,-9.15780708826474e+001°)
1.52097875324102e+002	(-3.38524925379108e+001dB,-9.15833203009001e+001°)
1.52625920896057e+002	(-3.38224014893550e+001dB,-9.15885887256467e+001°)
1.53155799709439e+002	(-3.37923105237381e+001dB,-9.15938762200499e+001°)
1.53687518128802e+002	(-3.37622196416377e+001dB,-9.15991828475004e+001°)
1.54221082540795e+002	(-3.37321288436357e+001dB,-9.16045086716173e+001°)
1.54756499354240e+002	(-3.37020381303178e+001dB,-9.16098537562491e+001°)
1.55293775000209e+002	(-3.36719475022738e+001dB,-9.16152181654743e+001°)
1.55832915932101e+002	(-3.36418569600977e+001dB,-9.16206019636023e+001°)
1.56373928625719e+002	(-3.36117665043875e+001dB,-9.16260052151741e+001°)
1.56916819579351e+002	(-3.35816761357455e+001dB,-9.16314279849629e+001°)
1.57461595313841e+002	(-3.35515858547779e+001dB,-9.16368703379752e+001°)
1.58008262372676e+002	(-3.35214956620953e+001dB,-9.16423323394514e+001°)
1.58556827322058e+002	(-3.34914055583126e+001dB,-9.16478140548663e+001°)
1.59107296750985e+002	(-3.34613155440489e+001dB,-9.16533155499304e+001°)
1.59659677271331e+002	(-3.34312256199275e+001dB,-9.16588368905902e+001°)
1.60213975517925e+002	(-3.34011357865760e+001dB,-9.16643781430292e+001°)
1.60770198148631e+002	(-3.33710460446266e+001dB,-9.16699393736689e+001°)
1.61328351844426e+002	(-3.33409563947157e+001dB,-9.16755206491689e+001°)
1.61888443309483e+002	(-3.33108668374841e+001dB,-9.16811220364286e+001°)
1.62450479271248e+002	(-3.32807773735771e+001dB,-9.16867436025872e+001°)
1.63014466480526e+002	(-3.32506880036444e+001dB,-9.16923854150248e+001°)
1.63580411711557e+002	(-3.32205987283404e+001dB,-9.16980475413634e+001°)
1.64148321762100e+002	(-3.31905095483239e+001dB,-9.17037300494673e+001°)
1.64718203453515e+002	(-3.31604204642582e+001dB,-9.17094330074442e+001°)
1.65290063630843e+002	(-3.31303314768113e+001dB,-9.17151564836459e+001°)
1.65863909162889e+002	(-3.31002425866559e+001dB,-9.17209005466690e+001°)
1.66439746942306e+002	(-3.30701537944692e+001dB,-9.17266652653560e+001°)
1.67017583885675e+002	(-3.30400651009332e+001dB,-9.17324507087957e+001°)
1.67597426933591e+002	(-3.30099765067346e+001dB,-9.17382569463244e+001°)
1.68179283050744e+002	(-3.29798880125649e+001dB,-9.17440840475265e+001°)
1.68763159226004e+002	(-3.29497996191203e+001dB,-9.17499320822352e+001°)
1.69349062472506e+002	(-3.29197113271021e+001dB,-9.17558011205338e+001°)
1.69936999827731e+002	(-3.28896231372160e+001dB,-9.17616912327560e+001°)
1.70526978353592e+002	(-3.28595350501731e+001dB,-9.17676024894870e+001°)
1.71119005136521e+002	(-3.28294470666890e+001dB,-9.17735349615642e+001°)
1.71713087287552e+002	(-3.27993591874847e+001dB,-9.17794887200783e+001°)
1.72309231942404e+002	(-3.27692714132857e+001dB,-9.17854638363738e+001°)
1.72907446261574e+002	(-3.27391837448230e+001dB,-9.17914603820499e+001°)
1.73507737430415e+002	(-3.27090961828324e+001dB,-9.17974784289616e+001°)
1.74110112659226e+002	(-3.26790087280548e+001dB,-9.18035180492202e+001°)
1.74714579183340e+002	(-3.26489213812364e+001dB,-9.18095793151946e+001°)
1.75321144263208e+002	(-3.26188341431285e+001dB,-9.18156622995114e+001°)
1.75929815184488e+002	(-3.25887470144876e+001dB,-9.18217670750566e+001°)
1.76540599258132e+002	(-3.25586599960755e+001dB,-9.18278937149760e+001°)
1.77153503820473e+002	(-3.25285730886591e+001dB,-9.18340422926760e+001°)
1.77768536233315e+002	(-3.24984862930108e+001dB,-9.18402128818247e+001°)
1.78385703884020e+002	(-3.24683996099084e+001dB,-9.18464055563527e+001°)
1.79005014185596e+002	(-3.24383130401350e+001dB,-9.18526203904538e+001°)
1.79626474576788e+002	(-3.24082265844790e+001dB,-9.18588574585860e+001°)
1.80250092522167e+002	(-3.23781402437347e+001dB,-9.18651168354726e+001°)
1.80875875512219e+002	(-3.23480540187014e+001dB,-9.18713985961026e+001°)
1.81503831063433e+002	(-3.23179679101842e+001dB,-9.18777028157319e+001°)
1.82133966718397e+002	(-3.22878819189939e+001dB,-9.18840295698841e+001°)
1.82766290045881e+002	(-3.22577960459466e+001dB,-9.18903789343515e+001°)
1.83400808640935e+002	(-3.22277102918644e+001dB,-9.18967509851957e+001°)
1.84037530124976e+002	(-3.21976246575749e+001dB,-9.19031457987489e+001°)
1.84676462145880e+002	(-3.21675391439116e+001dB,-9.19095634516144e+001°)
1.85317612378075e+002	(-3.21374537517135e+001dB,-9.19160040206677e+001°)
1.85960988522634e+002	(-3.21073684818257e+001dB,-9.19224675830574e+001°)
1.86606598307363e+002	(-3.20772833350990e+001dB,-9.19289542162061e+001°)
1.87254449486900e+002	(-3.20471983123903e+001dB,-9.19354639978113e+001°)
1.87904549842804e+002	(-3.20171134145622e+001dB,-9.19419970058461e+001°)
1.88556907183649e+002	(-3.19870286424835e+001dB,-9.19485533185607e+001°)
1.89211529345120e+002	(-3.19569439970288e+001dB,-9.19551330144823e+001°)
1.89868424190105e+002	(-3.19268594790791e+001dB,-9.19617361724174e+001°)
1.90527599608789e+002	(-3.18967750895210e+001dB,-9.19683628714513e+001°)
1.91189063518750e+002	(-3.18666908292479e+001dB,-9.19750131909500e+001°)
1.91852823865054e+002	(-3.18366066991588e+001dB,-9.19816872105609e+001°)
1.92518888620352e+002	(-3.18065227001594e+001dB,-9.19883850102134e+001°)
1.93187265784970e+002	(-3.17764388331613e+001dB,-9.19951066701202e+001°)
1.93857963387014e+002	(-3.17463550990827e+001dB,-9.20018522707782e+001°)
1.94530989482458e+002	(-3.17162714988482e+001dB,-9.20086218929693e+001°)
1.95206352155246e+002	(-3.16861880333885e+001dB,-9.20154156177613e+001°)
1.95884059517387e+002	(-3.16561047036410e+001dB,-9.20222335265092e+001°)
1.96564119709052e+002	(-3.16260215105496e+001dB,-9.20290757008555e+001°)
1.97246540898673e+002	(-3.15959384550647e+001dB,-9.20359422227321e+001°)
1.97931331283043e+002	(-3.15658555381434e+001dB,-9.20428331743602e+001°)
1.98618499087409e+002	(-3.15357727607491e+001dB,-9.20497486382521e+001°)
1.99308052565575e+002	(-3.15056901238524e+001dB,-9.20566886972117e+001°)
2.00000000000001e+002	(-3.14756076284301e+001dB,-9.20636534343356e+001°)
2.00694349701902e+002	(-3.14455252754663e+001dB,-9.20706429330142e+001°)
2.01391110011345e+002	(-3.14154430659515e+001dB,-9.20776572769324e+001°)
2.02090289297354e+002	(-3.13853610008833e+001dB,-9.20846965500708e+001°)
2.02791895958007e+002	(-3.13552790812661e+001dB,-9.20917608367066e+001°)
2.03495938420539e+002	(-3.13251973081114e+001dB,-9.20988502214146e+001°)
2.04202425141440e+002	(-3.12951156824376e+001dB,-9.21059647890681e+001°)
2.04911364606562e+002	(-3.12650342052703e+001dB,-9.21131046248400e+001°)
2.05622765331215e+002	(-3.12349528776421e+001dB,-9.21202698142037e+001°)
2.06336635860273e+002	(-3.12048717005928e+001dB,-9.21274604429343e+001°)
2.07052984768277e+002	(-3.11747906751693e+001dB,-9.21346765971094e+001°)
2.07771820659534e+002	(-3.11447098024260e+001dB,-9.21419183631100e+001°)
2.08493152168226e+002	(-3.11146290834245e+001dB,-9.21491858276218e+001°)
2.09216987958508e+002	(-3.10845485192337e+001dB,-9.21564790776360e+001°)
2.09943336724615e+002	(-3.10544681109300e+001dB,-9.21637982004504e+001°)
2.10672207190969e+002	(-3.10243878595972e+001dB,-9.21711432836705e+001°)
2.11403608112278e+002	(-3.09943077663267e+001dB,-9.21785144152103e+001°)
2.12137548273645e+002	(-3.09642278322174e+001dB,-9.21859116832934e+001°)
2.12874036490674e+002	(-3.09341480583759e+001dB,-9.21933351764540e+001°)
2.13613081609572e+002	(-3.09040684459165e+001dB,-9.22007849835384e+001°)
2.14354692507260e+002	(-3.08739889959610e+001dB,-9.22082611937050e+001°)
2.15098878091477e+002	(-3.08439097096393e+001dB,-9.22157638964265e+001°)
2.15845647300887e+002	(-3.08138305880889e+001dB,-9.22232931814902e+001°)
2.16595009105187e+002	(-3.07837516324553e+001dB,-9.22308491389991e+001°)
2.17346972505213e+002	(-3.07536728438919e+001dB,-9.22384318593733e+001°)
2.18101546533053e+002	(-3.07235942235602e+001dB,-9.22460414333507e+001°)
2.18858740252150e+002	(-3.06935157726297e+001dB,-9.22536779519883e+001°)
2.19618562757412e+002	(-3.06634374922779e+001dB,-9.22613415066630e+001°)
2.20381023175324e+002	(-3.06333593836906e+001dB,-9.22690321890731e+001°)
2.21146130664056e+002	(-3.06032814480619e+001dB,-9.22767500912387e+001°)
2.21913894413571e+002	(-3.05732036865940e+001dB,-9.22844953055033e+001°)
2.22684323645739e+002	(-3.05431261004975e+001dB,-9.22922679245349e+001°)
2.23457427614446e+002	(-3.05130486909914e+001dB,-9.23000680413265e+001°)
2.24233215605704e+002	(-3.04829714593033e+001dB,-9.23078957491979e+001°)
2.25011696937764e+002	(-3.04528944066691e+001dB,-9.23157511417963e+001°)
2.25792880961228e+002	(-3.04228175343334e+001dB,-9.23236343130974e+001°)
2.26576777059162e+002	(-3.03927408435493e+001dB,-9.23315453574069e+001°)
2.27363394647205e+002	(-3.03626643355788e+001dB,-9.23394843693611e+001°)
2.28152743173687e+002	(-3.03325880116926e+001dB,-9.23474514439283e+001°)
2.28944832119739e+002	(-3.03025118731701e+001dB,-9.23554466764096e+001°)
2.29739670999409e+002	(-3.02724359212995e+001dB,-9.23634701624406e+001°)
2.30537269359775e+002	(-3.02423601573783e+001dB,-9.23715219979916e+001°)
2.31337636781060e+002	(-3.02122845827127e+001dB,-9.23796022793696e+001°)
2.32140782876746e+002	(-3.01822091986179e+001dB,-9.23877111032190e+001°)
2.32946717293693e+002	(-3.01521340064185e+001dB,-9.23958485665225e+001°)
2.33755449712251e+002	(-3.01220590074482e+001dB,-9.24040147666027e+001°)
2.34566989846378e+002	(-3.00919842030497e+001dB,-9.24122098011229e+001°)
2.35381347443756e+002	(-3.00619095945753e+001dB,-9.24204337680883e+001°)
2.36198532285908e+002	(-3.00318351833867e+001dB,-9.24286867658472e+001°)
2.37018554188319e+002	(-3.00017609708548e+001dB,-9.24369688930921e+001°)
2.37841423000546e+002	(-2.99716869583602e+001dB,-9.24452802488608e+001°)
2.38667148606347e+002	(-2.99416131472929e+001dB,-9.24536209325375e+001°)
2.39495740923788e+002	(-2.99115395390529e+001dB,-9.24619910438540e+001°)
2.40327209905372e+002	(-2.98814661350494e+001dB,-9.24703906828910e+001°)
2.41161565538154e+002	(-2.98513929367019e+001dB,-9.24788199500791e+001°)
2.41998817843861e+002	(-2.98213199454393e+001dB,-9.24872789461997e+001°)
2.42838976879012e+002	(-2.97912471627007e+001dB,-9.24957677723868e+001°)
2.43682052735041e+002	(-2.97611745899350e+001dB,-9.25042865301276e+001°)
2.44528055538416e+002	(-2.97311022286013e+001dB,-9.25128353212638e+001°)
2.45376995450763e+002	(-2.97010300801687e+001dB,-9.25214142479930e+001°)
2.46228882668986e+002	(-2.96709581461166e+001dB,-9.25300234128695e+001°)
2.47083727425388e+002	(-2.96408864279345e+001dB,-9.25386629188059e+001°)
2.47941539987800e+002	(-2.96108149271224e+001dB,-9.25473328690741e+001°)
2.48802330659696e+002	(-2.95807436451906e+001dB,-9.25560333673061e+001°)
2.49666109780325e+002	(-2.95506725836599e+001dB,-9.25647645174959e+001°)
2.50532887724828e+002	(-2.95206017440617e+001dB,-9.25735264240002e+001°)
2.51402674904368e+002	(-2.94905311279379e+001dB,-9.25823191915399e+001°)
2.52275481766252e+002	(-2.94604607368411e+001dB,-9.25911429252007e+001°)
2.53151318794058e+002	(-2.94303905723349e+001dB,-9.25999977304354e+001°)
2.54030196507760e+002	(-2.94003206359935e+001dB,-9.26088837130638e+001°)
